i1	V(N001,N002)	V(N002,N003)	V(N003,N004)	V(n004)
0.000000000000000e+000	0.000000e+000	7.127969e-004	9.235044e-014	5.754705e-018
1.000000000000000e-004	5.955625e-001	2.253917e+000	4.798876e-001	5.058247e-002
2.000000000000000e-004	6.134906e-001	2.376451e+000	5.113541e-001	7.064922e-002
3.000000000000000e-004	6.239963e-001	2.446663e+000	5.298162e-001	8.340275e-002
4.000000000000000e-004	6.314194e-001	2.497612e+000	5.428787e-001	9.275880e-002
5.000000000000000e-004	6.372423e-001	2.537713e+000	5.531367e-001	1.002152e-001
6.000000000000001e-004	6.419318e-001	2.570122e+000	5.614097e-001	1.063143e-001
7.000000000000001e-004	6.459036e-001	2.597655e+000	5.684249e-001	1.115230e-001
8.000000000000002e-004	6.493526e-001	2.621638e+000	5.745243e-001	1.160721e-001
9.000000000000002e-004	6.523969e-001	2.642874e+000	5.799147e-001	1.201068e-001
1.000000000000000e-003	6.551208e-001	2.661934e+000	5.847438e-001	1.237312e-001
1.100000000000000e-003	6.575851e-001	2.679234e+000	5.891184e-001	1.270208e-001
1.200000000000000e-003	6.598353e-001	2.695077e+000	5.931175e-001	1.300324e-001
1.300000000000000e-003	6.619053e-001	2.709697e+000	5.968010e-001	1.328094e-001
1.400000000000000e-003	6.638222e-001	2.723276e+000	6.002157e-001	1.353856e-001
1.500000000000001e-003	6.656065e-001	2.735957e+000	6.033987e-001	1.377882e-001
1.600000000000001e-003	6.672757e-001	2.747856e+000	6.063799e-001	1.400392e-001
1.700000000000001e-003	6.688435e-001	2.759068e+000	6.091839e-001	1.421565e-001
1.800000000000001e-003	6.703222e-001	2.769671e+000	6.118307e-001	1.441553e-001
1.900000000000001e-003	6.717205e-001	2.779731e+000	6.143375e-001	1.460481e-001
2.000000000000001e-003	6.730471e-001	2.789304e+000	6.167187e-001	1.478455e-001
2.100000000000000e-003	6.743090e-001	2.798438e+000	6.189864e-001	1.495569e-001
2.200000000000000e-003	6.755126e-001	2.807173e+000	6.211512e-001	1.511900e-001
2.300000000000000e-003	6.766620e-001	2.815544e+000	6.232224e-001	1.527517e-001
2.400000000000000e-003	6.777627e-001	2.823584e+000	6.252078e-001	1.542481e-001
2.500000000000000e-003	6.788187e-001	2.831318e+000	6.271144e-001	1.556844e-001
2.599999999999999e-003	6.798332e-001	2.838771e+000	6.289485e-001	1.570652e-001
2.699999999999999e-003	6.808095e-001	2.845964e+000	6.307155e-001	1.583947e-001
2.799999999999999e-003	6.817498e-001	2.852916e+000	6.324203e-001	1.596766e-001
2.899999999999999e-003	6.826575e-001	2.859644e+000	6.340672e-001	1.609141e-001
2.999999999999999e-003	6.835346e-001	2.866163e+000	6.356603e-001	1.621104e-001
3.099999999999999e-003	6.843827e-001	2.872486e+000	6.372030e-001	1.632679e-001
3.199999999999998e-003	6.852038e-001	2.878627e+000	6.386985e-001	1.643893e-001
3.299999999999998e-003	6.859996e-001	2.884596e+000	6.401498e-001	1.654766e-001
3.399999999999998e-003	6.867719e-001	2.890404e+000	6.415593e-001	1.665319e-001
3.499999999999998e-003	6.875215e-001	2.896060e+000	6.429297e-001	1.675570e-001
3.599999999999998e-003	6.882501e-001	2.901573e+000	6.442631e-001	1.685537e-001
3.699999999999998e-003	6.889589e-001	2.906949e+000	6.455614e-001	1.695234e-001
3.799999999999997e-003	6.896486e-001	2.912198e+000	6.468268e-001	1.704677e-001
3.899999999999997e-003	6.903205e-001	2.917325e+000	6.480606e-001	1.713877e-001
3.999999999999998e-003	6.909752e-001	2.922336e+000	6.492647e-001	1.722847e-001
4.099999999999998e-003	6.916139e-001	2.927238e+000	6.504405e-001	1.731599e-001
4.199999999999998e-003	6.922369e-001	2.932035e+000	6.515893e-001	1.740143e-001
4.299999999999998e-003	6.928461e-001	2.936732e+000	6.527123e-001	1.748488e-001
4.399999999999999e-003	6.934404e-001	2.941335e+000	6.538109e-001	1.756644e-001
4.499999999999999e-003	6.940215e-001	2.945847e+000	6.548861e-001	1.764619e-001
4.599999999999999e-003	6.945899e-001	2.950272e+000	6.559388e-001	1.772422e-001
4.699999999999999e-003	6.951463e-001	2.954614e+000	6.569702e-001	1.780058e-001
4.800000000000000e-003	6.956909e-001	2.958876e+000	6.579811e-001	1.787537e-001
4.900000000000000e-003	6.962242e-001	2.963062e+000	6.589722e-001	1.794862e-001
5.000000000000000e-003	6.967466e-001	2.967175e+000	6.599445e-001	1.802042e-001
5.100000000000000e-003	6.972589e-001	2.971218e+000	6.608987e-001	1.809082e-001
5.200000000000001e-003	6.977615e-001	2.975193e+000	6.618354e-001	1.815986e-001
5.300000000000001e-003	6.982541e-001	2.979104e+000	6.627554e-001	1.822761e-001
5.400000000000001e-003	6.987374e-001	2.982952e+000	6.636593e-001	1.829411e-001
5.500000000000001e-003	6.992118e-001	2.986739e+000	6.645476e-001	1.835941e-001
5.600000000000002e-003	6.996782e-001	2.990469e+000	6.654208e-001	1.842354e-001
5.700000000000002e-003	7.001359e-001	2.994142e+000	6.662797e-001	1.848656e-001
5.800000000000002e-003	7.005858e-001	2.997761e+000	6.671246e-001	1.854849e-001
5.900000000000003e-003	7.010276e-001	3.001328e+000	6.679561e-001	1.860938e-001
6.000000000000003e-003	7.014625e-001	3.004845e+000	6.687745e-001	1.866926e-001
6.100000000000003e-003	7.018902e-001	3.008313e+000	6.695803e-001	1.872817e-001
6.200000000000003e-003	7.023108e-001	3.011734e+000	6.703740e-001	1.878612e-001
6.300000000000004e-003	7.027242e-001	3.015109e+000	6.711559e-001	1.884317e-001
6.400000000000004e-003	7.031317e-001	3.018440e+000	6.719263e-001	1.889933e-001
6.500000000000004e-003	7.035329e-001	3.021728e+000	6.726857e-001	1.895463e-001
6.600000000000004e-003	7.039278e-001	3.024974e+000	6.734343e-001	1.900910e-001
6.700000000000005e-003	7.043169e-001	3.028180e+000	6.741726e-001	1.906276e-001
6.800000000000005e-003	7.047000e-001	3.031347e+000	6.749007e-001	1.911563e-001
6.900000000000005e-003	7.050776e-001	3.034475e+000	6.756191e-001	1.916775e-001
7.000000000000005e-003	7.054498e-001	3.037568e+000	6.763279e-001	1.921912e-001
7.100000000000006e-003	7.058165e-001	3.040624e+000	6.770275e-001	1.926978e-001
7.200000000000006e-003	7.061784e-001	3.043645e+000	6.777181e-001	1.931974e-001
7.300000000000006e-003	7.065349e-001	3.046632e+000	6.784000e-001	1.936902e-001
7.400000000000006e-003	7.068870e-001	3.049587e+000	6.790733e-001	1.941764e-001
7.500000000000007e-003	7.072344e-001	3.052509e+000	6.797384e-001	1.946562e-001
7.600000000000007e-003	7.075765e-001	3.055401e+000	6.803954e-001	1.951297e-001
7.700000000000007e-003	7.079146e-001	3.058261e+000	6.810445e-001	1.955971e-001
7.800000000000007e-003	7.082486e-001	3.061092e+000	6.816861e-001	1.960586e-001
7.900000000000008e-003	7.085781e-001	3.063895e+000	6.823201e-001	1.965142e-001
8.000000000000007e-003	7.089033e-001	3.066669e+000	6.829469e-001	1.969643e-001
8.100000000000007e-003	7.092247e-001	3.069415e+000	6.835666e-001	1.974088e-001
8.200000000000006e-003	7.095420e-001	3.072135e+000	6.841795e-001	1.978479e-001
8.300000000000005e-003	7.098558e-001	3.074829e+000	6.847856e-001	1.982819e-001
8.400000000000005e-003	7.101655e-001	3.077497e+000	6.853851e-001	1.987107e-001
8.500000000000004e-003	7.104716e-001	3.080141e+000	6.859781e-001	1.991345e-001
8.600000000000004e-003	7.107739e-001	3.082760e+000	6.865650e-001	1.995534e-001
8.700000000000003e-003	7.110729e-001	3.085355e+000	6.871457e-001	1.999675e-001
8.800000000000002e-003	7.113688e-001	3.087927e+000	6.877204e-001	2.003770e-001
8.900000000000002e-003	7.116609e-001	3.090477e+000	6.882892e-001	2.007820e-001
9.000000000000001e-003	7.119498e-001	3.093004e+000	6.888523e-001	2.011825e-001
9.100000000000000e-003	7.122357e-001	3.095510e+000	6.894099e-001	2.015786e-001
9.200000000000000e-003	7.125185e-001	3.097994e+000	6.899619e-001	2.019705e-001
9.299999999999999e-003	7.127979e-001	3.100458e+000	6.905086e-001	2.023582e-001
9.399999999999999e-003	7.130747e-001	3.102901e+000	6.910501e-001	2.027418e-001
9.499999999999998e-003	7.133484e-001	3.105325e+000	6.915864e-001	2.031215e-001
9.599999999999997e-003	7.136192e-001	3.107729e+000	6.921177e-001	2.034972e-001
9.699999999999997e-003	7.138872e-001	3.110113e+000	6.926441e-001	2.038691e-001
9.799999999999996e-003	7.141523e-001	3.112480e+000	6.931657e-001	2.042373e-001
9.899999999999996e-003	7.144151e-001	3.114828e+000	6.936825e-001	2.046017e-001
9.999999999999995e-003	7.146749e-001	3.117158e+000	6.941948e-001	2.049626e-001
1.009999999999999e-002	7.149324e-001	3.119470e+000	6.947025e-001	2.053200e-001
1.019999999999999e-002	7.151871e-001	3.121766e+000	6.952057e-001	2.056739e-001
1.029999999999999e-002	7.154398e-001	3.124044e+000	6.957046e-001	2.060244e-001
1.039999999999999e-002	7.156897e-001	3.126306e+000	6.961993e-001	2.063715e-001
1.049999999999999e-002	7.159371e-001	3.128552e+000	6.966897e-001	2.067154e-001
1.059999999999999e-002	7.161818e-001	3.130781e+000	6.971761e-001	2.070561e-001
1.069999999999999e-002	7.164249e-001	3.132995e+000	6.976583e-001	2.073937e-001
1.079999999999999e-002	7.166657e-001	3.135194e+000	6.981367e-001	2.077282e-001
1.089999999999999e-002	7.169042e-001	3.137378e+000	6.986112e-001	2.080597e-001
1.099999999999999e-002	7.171402e-001	3.139547e+000	6.990818e-001	2.083881e-001
1.109999999999999e-002	7.173743e-001	3.141701e+000	6.995487e-001	2.087137e-001
1.119999999999999e-002	7.176061e-001	3.143841e+000	7.000119e-001	2.090364e-001
1.129999999999999e-002	7.178364e-001	3.145967e+000	7.004715e-001	2.093563e-001
1.139999999999999e-002	7.180638e-001	3.148080e+000	7.009276e-001	2.096734e-001
1.149999999999999e-002	7.182899e-001	3.150178e+000	7.013801e-001	2.099878e-001
1.159999999999999e-002	7.185140e-001	3.152264e+000	7.018293e-001	2.102995e-001
1.169999999999999e-002	7.187357e-001	3.154337e+000	7.022751e-001	2.106086e-001
1.179999999999998e-002	7.189560e-001	3.156396e+000	7.027175e-001	2.109151e-001
1.189999999999998e-002	7.191744e-001	3.158443e+000	7.031567e-001	2.112191e-001
1.199999999999998e-002	7.193909e-001	3.160478e+000	7.035928e-001	2.115206e-001
1.209999999999998e-002	7.196054e-001	3.162500e+000	7.040256e-001	2.118197e-001
1.219999999999998e-002	7.198181e-001	3.164511e+000	7.044554e-001	2.121163e-001
1.229999999999998e-002	7.200298e-001	3.166509e+000	7.048821e-001	2.124105e-001
1.239999999999998e-002	7.202392e-001	3.168496e+000	7.053058e-001	2.127025e-001
1.249999999999998e-002	7.204471e-001	3.170472e+000	7.057266e-001	2.129921e-001
1.259999999999998e-002	7.206526e-001	3.172436e+000	7.061445e-001	2.132794e-001
1.269999999999998e-002	7.208571e-001	3.174390e+000	7.065595e-001	2.135646e-001
1.279999999999998e-002	7.210603e-001	3.176332e+000	7.069717e-001	2.138475e-001
1.289999999999998e-002	7.212615e-001	3.178264e+000	7.073812e-001	2.141283e-001
1.299999999999998e-002	7.214613e-001	3.180185e+000	7.077879e-001	2.144070e-001
1.309999999999998e-002	7.216592e-001	3.182096e+000	7.081919e-001	2.146835e-001
1.319999999999998e-002	7.218561e-001	3.183996e+000	7.085934e-001	2.149580e-001
1.329999999999998e-002	7.220516e-001	3.185887e+000	7.089921e-001	2.152305e-001
1.339999999999997e-002	7.222452e-001	3.187767e+000	7.093884e-001	2.155010e-001
1.349999999999997e-002	7.224369e-001	3.189638e+000	7.097821e-001	2.157695e-001
1.359999999999997e-002	7.226281e-001	3.191499e+000	7.101734e-001	2.160361e-001
1.369999999999997e-002	7.228174e-001	3.193351e+000	7.105622e-001	2.163007e-001
1.379999999999997e-002	7.230058e-001	3.195193e+000	7.109485e-001	2.165635e-001
1.389999999999997e-002	7.231927e-001	3.197026e+000	7.113325e-001	2.168245e-001
1.399999999999997e-002	7.233777e-001	3.198850e+000	7.117141e-001	2.170835e-001
1.409999999999997e-002	7.235622e-001	3.200665e+000	7.120935e-001	2.173408e-001
1.419999999999997e-002	7.237449e-001	3.202471e+000	7.124705e-001	2.175964e-001
1.429999999999997e-002	7.239265e-001	3.204269e+000	7.128453e-001	2.178501e-001
1.439999999999997e-002	7.241063e-001	3.206058e+000	7.132179e-001	2.181021e-001
1.449999999999997e-002	7.242856e-001	3.207838e+000	7.135883e-001	2.183525e-001
1.459999999999997e-002	7.244635e-001	3.209610e+000	7.139565e-001	2.186011e-001
1.469999999999997e-002	7.246399e-001	3.211374e+000	7.143227e-001	2.188481e-001
1.479999999999997e-002	7.248154e-001	3.213130e+000	7.146867e-001	2.190934e-001
1.489999999999997e-002	7.249894e-001	3.214877e+000	7.150487e-001	2.193372e-001
1.499999999999997e-002	7.251625e-001	3.216617e+000	7.154086e-001	2.195793e-001
1.509999999999996e-002	7.253346e-001	3.218349e+000	7.157665e-001	2.198199e-001
1.519999999999996e-002	7.255049e-001	3.220073e+000	7.161224e-001	2.200589e-001
1.529999999999996e-002	7.256746e-001	3.221789e+000	7.164763e-001	2.202964e-001
1.539999999999996e-002	7.258430e-001	3.223499e+000	7.168283e-001	2.205324e-001
1.549999999999996e-002	7.260103e-001	3.225201e+000	7.171785e-001	2.207668e-001
1.559999999999996e-002	7.261767e-001	3.226895e+000	7.175266e-001	2.209999e-001
1.569999999999996e-002	7.263422e-001	3.228582e+000	7.178730e-001	2.212314e-001
1.579999999999996e-002	7.265062e-001	3.230262e+000	7.182175e-001	2.214615e-001
1.589999999999996e-002	7.266693e-001	3.231935e+000	7.185603e-001	2.216903e-001
1.599999999999996e-002	7.268319e-001	3.233601e+000	7.189012e-001	2.219176e-001
1.609999999999996e-002	7.269931e-001	3.235261e+000	7.192403e-001	2.221435e-001
1.619999999999996e-002	7.271528e-001	3.236913e+000	7.195777e-001	2.223680e-001
1.629999999999996e-002	7.273126e-001	3.238559e+000	7.199134e-001	2.225913e-001
1.639999999999996e-002	7.274704e-001	3.240198e+000	7.202473e-001	2.228131e-001
1.649999999999996e-002	7.276278e-001	3.241831e+000	7.205796e-001	2.230337e-001
1.659999999999996e-002	7.277842e-001	3.243456e+000	7.209102e-001	2.232530e-001
1.669999999999995e-002	7.279396e-001	3.245076e+000	7.212392e-001	2.234710e-001
1.679999999999995e-002	7.280936e-001	3.246690e+000	7.215665e-001	2.236877e-001
1.689999999999995e-002	7.282472e-001	3.248297e+000	7.218922e-001	2.239031e-001
1.699999999999995e-002	7.283998e-001	3.249899e+000	7.222164e-001	2.241174e-001
1.709999999999995e-002	7.285514e-001	3.251494e+000	7.225389e-001	2.243304e-001
1.719999999999995e-002	7.287021e-001	3.253083e+000	7.228600e-001	2.245422e-001
1.729999999999995e-002	7.288518e-001	3.254666e+000	7.231795e-001	2.247528e-001
1.739999999999995e-002	7.290015e-001	3.256243e+000	7.234975e-001	2.249622e-001
1.749999999999995e-002	7.291498e-001	3.257814e+000	7.238140e-001	2.251704e-001
1.759999999999995e-002	7.292967e-001	3.259380e+000	7.241290e-001	2.253775e-001
1.769999999999995e-002	7.294431e-001	3.260940e+000	7.244425e-001	2.255834e-001
1.779999999999995e-002	7.295890e-001	3.262495e+000	7.247546e-001	2.257883e-001
1.789999999999995e-002	7.297339e-001	3.264044e+000	7.250653e-001	2.259919e-001
1.799999999999995e-002	7.298779e-001	3.265587e+000	7.253745e-001	2.261945e-001
1.809999999999995e-002	7.300215e-001	3.267125e+000	7.256824e-001	2.263960e-001
1.819999999999995e-002	7.301636e-001	3.268658e+000	7.259889e-001	2.265965e-001
1.829999999999995e-002	7.303057e-001	3.270185e+000	7.262940e-001	2.267958e-001
1.839999999999994e-002	7.304468e-001	3.271707e+000	7.265977e-001	2.269941e-001
1.849999999999994e-002	7.305870e-001	3.273223e+000	7.269001e-001	2.271914e-001
1.859999999999994e-002	7.307262e-001	3.274736e+000	7.272013e-001	2.273876e-001
1.869999999999994e-002	7.308645e-001	3.276242e+000	7.275010e-001	2.275828e-001
1.879999999999994e-002	7.310028e-001	3.277744e+000	7.277995e-001	2.277769e-001
1.889999999999994e-002	7.311401e-001	3.279240e+000	7.280967e-001	2.279701e-001
1.899999999999994e-002	7.312765e-001	3.280732e+000	7.283926e-001	2.281623e-001
1.909999999999994e-002	7.314124e-001	3.282219e+000	7.286873e-001	2.283535e-001
1.919999999999994e-002	7.315474e-001	3.283701e+000	7.289807e-001	2.285438e-001
1.929999999999994e-002	7.316818e-001	3.285179e+000	7.292729e-001	2.287330e-001
1.939999999999994e-002	7.318158e-001	3.286651e+000	7.295639e-001	2.289214e-001
1.949999999999994e-002	7.319484e-001	3.288119e+000	7.298537e-001	2.291088e-001
1.959999999999994e-002	7.320805e-001	3.289583e+000	7.301423e-001	2.292952e-001
1.969999999999994e-002	7.322121e-001	3.291041e+000	7.304297e-001	2.294807e-001
1.979999999999994e-002	7.323432e-001	3.292495e+000	7.307160e-001	2.296654e-001
1.989999999999994e-002	7.324734e-001	3.293945e+000	7.310010e-001	2.298491e-001
1.999999999999993e-002	7.326035e-001	3.295390e+000	7.312850e-001	2.300319e-001
2.009999999999993e-002	7.327323e-001	3.296831e+000	7.315678e-001	2.302139e-001
2.019999999999993e-002	7.328606e-001	3.298268e+000	7.318495e-001	2.303949e-001
2.029999999999993e-002	7.329884e-001	3.299700e+000	7.321301e-001	2.305751e-001
2.039999999999993e-002	7.331157e-001	3.301128e+000	7.324096e-001	2.307544e-001
2.049999999999993e-002	7.332420e-001	3.302552e+000	7.326880e-001	2.309330e-001
2.059999999999993e-002	7.333679e-001	3.303971e+000	7.329653e-001	2.311106e-001
2.069999999999993e-002	7.334933e-001	3.305387e+000	7.332415e-001	2.312874e-001
2.079999999999993e-002	7.336178e-001	3.306799e+000	7.335167e-001	2.314634e-001
2.089999999999993e-002	7.337418e-001	3.308206e+000	7.337908e-001	2.316386e-001
2.099999999999993e-002	7.338653e-001	3.309609e+000	7.340640e-001	2.318129e-001
2.109999999999993e-002	7.339883e-001	3.311008e+000	7.343360e-001	2.319865e-001
2.119999999999993e-002	7.341104e-001	3.312404e+000	7.346071e-001	2.321592e-001
2.129999999999993e-002	7.342324e-001	3.313795e+000	7.348771e-001	2.323312e-001
2.139999999999993e-002	7.343531e-001	3.315183e+000	7.351462e-001	2.325024e-001
2.149999999999993e-002	7.344737e-001	3.316567e+000	7.354142e-001	2.326728e-001
2.159999999999993e-002	7.345939e-001	3.317947e+000	7.356813e-001	2.328424e-001
2.169999999999992e-002	7.347136e-001	3.319323e+000	7.359474e-001	2.330113e-001
2.179999999999992e-002	7.348323e-001	3.320695e+000	7.362126e-001	2.331795e-001
2.189999999999992e-002	7.349505e-001	3.322064e+000	7.364768e-001	2.333469e-001
2.199999999999992e-002	7.350688e-001	3.323429e+000	7.367400e-001	2.335135e-001
2.209999999999992e-002	7.351856e-001	3.324791e+000	7.370023e-001	2.336794e-001
2.219999999999992e-002	7.353024e-001	3.326149e+000	7.372637e-001	2.338446e-001
2.229999999999992e-002	7.354188e-001	3.327503e+000	7.375242e-001	2.340091e-001
2.239999999999992e-002	7.355342e-001	3.328854e+000	7.377837e-001	2.341729e-001
2.249999999999992e-002	7.356496e-001	3.330201e+000	7.380424e-001	2.343359e-001
2.259999999999992e-002	7.357645e-001	3.331545e+000	7.383002e-001	2.344983e-001
2.269999999999992e-002	7.358785e-001	3.332885e+000	7.385570e-001	2.346600e-001
2.279999999999992e-002	7.359924e-001	3.334222e+000	7.388130e-001	2.348210e-001
2.289999999999992e-002	7.361054e-001	3.335556e+000	7.390681e-001	2.349813e-001
2.299999999999992e-002	7.362180e-001	3.336886e+000	7.393224e-001	2.351409e-001
2.309999999999992e-002	7.363305e-001	3.338213e+000	7.395758e-001	2.352999e-001
2.319999999999992e-002	7.364421e-001	3.339537e+000	7.398283e-001	2.354581e-001
2.329999999999992e-002	7.365532e-001	3.340857e+000	7.400800e-001	2.356158e-001
2.339999999999991e-002	7.366638e-001	3.342174e+000	7.403309e-001	2.357728e-001
2.349999999999991e-002	7.367744e-001	3.343488e+000	7.405810e-001	2.359291e-001
2.359999999999991e-002	7.368846e-001	3.344799e+000	7.408302e-001	2.360848e-001
2.369999999999991e-002	7.369933e-001	3.346106e+000	7.410786e-001	2.362399e-001
2.379999999999991e-002	7.371030e-001	3.347411e+000	7.413262e-001	2.363943e-001
2.389999999999991e-002	7.372108e-001	3.348712e+000	7.415730e-001	2.365481e-001
2.399999999999991e-002	7.373190e-001	3.350011e+000	7.418189e-001	2.367013e-001
2.409999999999991e-002	7.374268e-001	3.351306e+000	7.420642e-001	2.368538e-001
2.419999999999991e-002	7.375340e-001	3.352598e+000	7.423087e-001	2.370058e-001
2.429999999999991e-002	7.376399e-001	3.353887e+000	7.425523e-001	2.371571e-001
2.439999999999991e-002	7.377462e-001	3.355174e+000	7.427952e-001	2.373079e-001
2.449999999999991e-002	7.378526e-001	3.356456e+000	7.430373e-001	2.374581e-001
2.459999999999991e-002	7.379575e-001	3.357737e+000	7.432787e-001	2.376076e-001
2.469999999999991e-002	7.380624e-001	3.359015e+000	7.435194e-001	2.377566e-001
2.479999999999991e-002	7.381673e-001	3.360289e+000	7.437592e-001	2.379050e-001
