time	V(N004,N005)	V(n003)
0.000000000000000e+000	0.000000e+000	0.000000e+000
1.011712147043218e-009	2.273737e-013	-4.537862e-006
3.511203005865277e-006	7.070588e-009	-1.575166e-002
7.021394299583512e-006	4.424740e-008	-3.149794e-002
1.053158559330175e-005	1.115306e-007	-4.724335e-002
1.404177688701998e-005	2.089203e-007	-6.298791e-002
1.755196818073821e-005	3.364165e-007	-7.873161e-002
2.106215947445645e-005	4.940191e-007	-9.447446e-002
2.457235076817467e-005	6.817281e-007	-1.102165e-001
4.914373669040165e-005	6.757677e-006	-2.203770e-001
9.828650853485560e-005	6.663799e-005	-4.405724e-001
1.315167036248033e-004	2.636313e-004	-5.893518e-001
1.581533941741497e-004	8.180439e-004	-7.085063e-001
1.781615021470213e-004	1.988351e-003	-7.979402e-001
1.956905606230210e-004	4.414618e-003	-8.762375e-001
2.120341790122525e-004	9.321749e-003	-9.491885e-001
2.304082968332484e-004	1.988888e-002	-1.031144e+000
2.470097145971269e-004	3.660494e-002	-1.105132e+000
2.668603199059594e-004	6.860048e-002	-1.193509e+000
2.958691593754085e-004	1.349104e-001	-1.322487e+000
3.328406211181229e-004	2.417124e-001	-1.486579e+000
3.734696914663910e-004	3.776642e-001	-1.666471e+000
4.262156913413322e-004	5.705643e-001	-1.899193e+000
5.058837100558458e-004	8.771154e-001	-2.248902e+000
6.035399600558458e-004	1.263497e+000	-2.674546e+000
7.011962100558457e-004	1.655448e+000	-3.096291e+000
7.988524600558457e-004	2.048712e+000	-3.513413e+000
8.965087100558457e-004	2.440261e+000	-3.925349e+000
9.941649600558457e-004	2.828539e+000	-4.331541e+000
1.091821210055846e-003	3.212451e+000	-4.731440e+000
1.189477460055846e-003	3.591052e+000	-5.124504e+000
1.287133710055846e-003	3.963527e+000	-5.510201e+000
1.384789960055846e-003	4.329149e+000	-5.888010e+000
1.482446210055846e-003	4.687258e+000	-6.257418e+000
1.580102460055846e-003	5.037241e+000	-6.617926e+000
1.677758710055846e-003	5.378524e+000	-6.969044e+000
1.873071210055846e-003	6.032844e+000	-7.641227e+000
2.068383710055847e-003	6.646184e+000	-8.270328e+000
2.263696210055847e-003	7.214883e+000	-8.852941e+000
2.556664960055847e-003	7.977039e+000	-9.632868e+000
2.849633710055847e-003	8.621472e+000	-1.029167e+001
3.142602460055848e-003	9.139947e+000	-1.082133e+001
3.435571210055848e-003	9.525887e+000	-1.121541e+001
3.728539960055848e-003	9.774429e+000	-1.146911e+001
4.021508710055848e-003	9.882450e+000	-1.157936e+001
4.314477460055846e-003	9.848601e+000	-1.154481e+001
4.607446210055845e-003	9.673318e+000	-1.136591e+001
4.900414960055844e-003	9.358819e+000	-1.104484e+001
5.193383710055843e-003	8.909083e+000	-1.058553e+001
5.486352460055842e-003	8.329814e+000	-9.993578e+000
5.779321210055841e-003	7.628403e+000	-9.276218e+000
6.072289960055840e-003	6.813884e+000	-8.442198e+000
6.365258710055839e-003	5.896920e+000	-7.501690e+000
6.658227460055838e-003	4.889857e+000	-6.466169e+000
6.951196210055837e-003	3.807035e+000	-5.348261e+000
7.244164960055836e-003	2.665883e+000	-4.161597e+000
7.439477460055835e-003	1.884491e+000	-3.339406e+000
7.634789960055835e-003	1.101849e+000	-2.497525e+000
7.732446210055834e-003	7.214623e-001	-2.070621e+000
7.830102460055834e-003	3.634968e-001	-1.640739e+000
7.890823299390160e-003	1.686457e-001	-1.372121e+000
7.927504185255587e-003	7.706350e-002	-1.209323e+000
7.951047809363180e-003	3.910363e-002	-1.104624e+000
7.981147845151498e-003	1.153412e-002	-9.706053e-001
7.990219382530729e-003	7.031471e-003	-9.301816e-001
8.001919380631982e-003	4.226327e-003	-8.780101e-001
8.016325543965435e-003	2.175361e-003	-8.137421e-001
8.029623392766852e-003	1.145512e-003	-7.543896e-001
8.044596824576212e-003	5.687177e-004	-6.875253e-001
8.061591503094956e-003	2.587438e-004	-6.115966e-001
8.081976351848298e-003	1.026690e-004	-5.204719e-001
8.106949480773678e-003	3.385544e-005	-4.087710e-001
8.138807068214864e-003	9.000301e-006	-2.661830e-001
8.191083144305012e-003	5.161390e-006	-3.204545e-002
8.288739394305012e-003	9.962916e-005	4.055265e-001
8.339380427755318e-003	5.314946e-004	6.324296e-001
8.371050523420720e-003	1.689583e-003	7.742867e-001
8.390156096605820e-003	3.760904e-003	8.598308e-001
8.406547365346946e-003	7.819891e-003	9.331943e-001
8.422701067400486e-003	1.571715e-002	1.005467e+000
8.439982812211462e-003	3.068829e-002	1.082754e+000
8.458106851461297e-003	5.626369e-002	1.163763e+000
8.482880400808489e-003	1.081532e-001	1.274406e+000
8.520636580393610e-003	2.117888e-001	1.442853e+000
8.560440245198954e-003	3.412672e-001	1.620172e+000
8.608084699218616e-003	5.134621e-001	1.831949e+000
8.679229132251132e-003	7.867572e-001	2.147098e+000
8.776885382251132e-003	1.175071e+000	2.577532e+000
8.972197882251131e-003	1.968707e+000	3.428826e+000
9.265166632251130e-003	3.155729e+000	4.672433e+000
9.558135382251129e-003	4.304553e+000	5.862605e+000
9.851104132251128e-003	5.393888e+000	6.984834e+000
1.014407288225113e-002	6.407334e+000	8.025434e+000
1.043704163225113e-002	7.330898e+000	8.971716e+000
1.073001038225113e-002	8.152350e+000	9.812139e+000
1.102297913225112e-002	8.861047e+000	1.053645e+001
1.131594788225112e-002	9.447926e+000	1.113581e+001
1.160891663225112e-002	9.905540e+000	1.160292e+001
1.190188538225112e-002	1.022811e+001	1.193206e+001
1.219485413225112e-002	1.041157e+001	1.211921e+001
1.248782288225112e-002	1.045360e+001	1.216209e+001
1.278079163225112e-002	1.035368e+001	1.206017e+001
1.307376038225112e-002	1.011305e+001	1.181466e+001
1.336672913225112e-002	9.734709e+000	1.142857e+001
1.365969788225111e-002	9.223418e+000	1.090658e+001
1.395266663225111e-002	8.585623e+000	1.025503e+001
1.414797913225111e-002	8.094079e+000	9.752556e+000
1.434329163225111e-002	7.552671e+000	9.198715e+000
1.444094788225111e-002	7.264228e+000	8.903461e+000
1.453860413225111e-002	6.964507e+000	8.596510e+000
1.463626038225111e-002	6.653947e+000	8.278280e+000
1.473391663225111e-002	6.333003e+000	7.949201e+000
1.483157288225111e-002	6.002153e+000	7.609719e+000
1.492922913225111e-002	5.661894e+000	7.260293e+000
1.502688538225111e-002	5.312748e+000	6.901396e+000
1.512454163225111e-002	4.955261e+000	6.533514e+000
1.522219788225111e-002	4.590008e+000	6.157147e+000
1.531985413225111e-002	4.217596e+000	5.772803e+000
1.541751038225111e-002	3.838676e+000	5.381003e+000
1.551516663225111e-002	3.453950e+000	4.982277e+000
1.561282288225111e-002	3.064201e+000	4.577165e+000
1.571047913225111e-002	2.670319e+000	4.166215e+000
1.580813538225111e-002	2.273373e+000	3.749985e+000
1.590579163225111e-002	1.874744e+000	3.329037e+000
1.600344788225111e-002	1.476404e+000	2.903941e+000
1.610110413225111e-002	1.081833e+000	2.475270e+000
1.619876038225112e-002	6.986021e-001	2.043603e+000
1.629641663225112e-002	3.408440e-001	1.609671e+000
1.635857276461665e-002	1.452829e-001	1.332506e+000
1.639339167288780e-002	6.348073e-002	1.176903e+000
1.641571052156671e-002	3.144360e-002	1.077036e+000
1.644403347528927e-002	9.372383e-003	9.502162e-001
1.645263655029479e-002	5.804747e-003	9.116773e-001
1.646431607086531e-002	3.468841e-003	8.593386e-001
1.647830724197194e-002	1.809925e-003	7.966266e-001
1.649204338778542e-002	9.352267e-004	7.350432e-001
1.650744102211152e-002	4.541278e-004	6.659952e-001
1.652523909155739e-002	1.993477e-004	5.861663e-001
1.654670772636704e-002	7.691979e-005	4.898550e-001
1.657629074593944e-002	2.336502e-005	3.571211e-001
1.662393794112252e-002	4.999340e-006	1.433482e-001
1.671207364435548e-002	1.215041e-004	-2.518440e-001
1.680972989435548e-002	1.247078e-003	-6.892475e-001
1.684418834228044e-002	3.798455e-003	-8.433588e-001
1.686700660613245e-002	9.164274e-003	-9.452736e-001
1.688374261136831e-002	1.812679e-002	-1.019955e+000
1.690255246087961e-002	3.639674e-002	-1.103821e+000
1.692124737305168e-002	6.570733e-002	-1.187092e+000
1.694973378012551e-002	1.299030e-001	-1.313813e+000
1.698645527957913e-002	2.348852e-001	-1.476892e+000
1.702678978384125e-002	3.690460e-001	-1.655606e+000
1.707843810382495e-002	5.573206e-001	-1.883683e+000
1.715610572260517e-002	8.557215e-001	-2.224978e+000
1.725376197260517e-002	1.241981e+000	-2.651189e+000
1.735141822260517e-002	1.634176e+000	-3.073609e+000
1.744907447260518e-002	2.027962e+000	-3.491502e+000
1.754673072260518e-002	2.420201e+000	-3.904303e+000
1.764438697260518e-002	2.809297e+000	-4.311454e+000
1.774204322260518e-002	3.194146e+000	-4.712404e+000
1.783969947260518e-002	3.573795e+000	-5.106610e+000
1.793735572260518e-002	3.947419e+000	-5.493538e+000
1.803501197260518e-002	4.314287e+000	-5.872665e+000
1.813266822260519e-002	4.673733e+000	-6.243476e+000
1.823032447260519e-002	5.025144e+000	-6.605471e+000
1.832798072260519e-002	5.367938e+000	-6.958158e+000
1.842563697260519e-002	5.701571e+000	-7.301060e+000
1.852329322260519e-002	6.025523e+000	-7.633712e+000
1.862094947260519e-002	6.339301e+000	-7.955665e+000
1.871860572260519e-002	6.642433e+000	-8.266482e+000
1.881626197260520e-002	6.934470e+000	-8.565742e+000
1.901157447260520e-002	7.483562e+000	-9.127990e+000
1.920688697260520e-002	7.983388e+000	-9.639361e+000
1.949985572260521e-002	8.634568e+000	-1.030505e+001
1.979282447260521e-002	9.160194e+000	-1.084201e+001
2.008579322260521e-002	9.553604e+000	-1.124371e+001
2.037876197260522e-002	9.809835e+000	-1.150525e+001
2.067173072260522e-002	9.925667e+000	-1.162346e+001
2.096469947260523e-002	9.899651e+000	-1.159691e+001
2.125766822260523e-002	9.732126e+000	-1.142594e+001
2.155063697260523e-002	9.425207e+000	-1.111262e+001
2.184360572260524e-002	8.982772e+000	-1.066080e+001
2.213657447260524e-002	8.410433e+000	-1.007599e+001
2.242954322260525e-002	7.715480e+000	-9.365314e+000
2.272251197260525e-002	6.906852e+000	-8.537451e+000
2.301548072260526e-002	5.995110e+000	-7.602496e+000
2.330844947260526e-002	4.992485e+000	-6.571851e+000
2.360141822260526e-002	3.913147e+000	-5.458082e+000
2.389438697260527e-002	2.774181e+000	-4.274770e+000
2.418735572260527e-002	1.599861e+000	-3.036338e+000
2.428501197260527e-002	1.208219e+000	-2.613870e+000
2.438266822260527e-002	8.237216e-001	-2.187520e+000
2.448032447260528e-002	4.589940e-001	-1.757960e+000
2.456263634148392e-002	1.851562e-001	-1.393917e+000
2.460257974460464e-002	8.102250e-002	-1.216614e+000
2.462747697648484e-002	3.985310e-002	-1.105842e+000
2.465818505217618e-002	1.150677e-002	-9.690463e-001
2.466791685332524e-002	6.732583e-003	-9.256582e-001
2.467915276363369e-002	4.107296e-003	-8.755311e-001
2.469371736616173e-002	2.104580e-003	-8.105250e-001
2.470700062881982e-002	1.107246e-003	-7.512105e-001
2.472208918773576e-002	5.472004e-004	-6.838026e-001
2.473921064284557e-002	2.474487e-004	-6.072757e-001
2.475976290876187e-002	9.751320e-005	-5.153667e-001
2.478507101389528e-002	3.170967e-005	-4.021271e-001
2.481726567086202e-002	7.823110e-006	-2.579901e-001
2.486063769772269e-002	2.417713e-006	-6.369814e-002
2.494192961207233e-002	1.986325e-004	3.005760e-001
2.503958586207233e-002	1.954824e-003	7.381239e-001
2.507166575790103e-002	5.550444e-003	8.817742e-001
2.509434029287735e-002	1.324913e-002	9.832371e-001
2.511167189074762e-002	2.576023e-002	1.060749e+000
2.513030801064686e-002	4.905760e-002	1.144047e+000
2.515202278169404e-002	9.163952e-002	1.241024e+000
2.519544389954346e-002	2.074321e-001	1.434723e+000
2.523564139947669e-002	3.362703e-001	1.613767e+000
2.528179344114900e-002	5.023960e-001	1.818860e+000
2.535150168223275e-002	7.694867e-001	2.127562e+000
2.544915793223275e-002	1.157080e+000	2.557866e+000
2.564447043223275e-002	1.949795e+000	3.408823e+000
2.593743918223276e-002	3.135778e+000	4.651677e+000
2.623040793223276e-002	4.283446e+000	5.840812e+000
2.652337668223277e-002	5.371422e+000	6.961733e+000
2.681634543223277e-002	6.383286e+000	8.000772e+000
2.710931418223277e-002	7.305057e+000	8.945261e+000
2.740228293223278e-002	8.124518e+000	9.783681e+000
2.769525168223278e-002	8.831052e+000	1.050581e+001
2.798822043223279e-002	9.415619e+000	1.110283e+001
2.828118918223279e-002	9.870803e+000	1.156747e+001
2.857415793223279e-002	1.019085e+001	1.189405e+001
2.886712668223280e-002	1.037174e+001	1.207858e+001
2.916009543223280e-002	1.041118e+001	1.211882e+001
2.945306418223281e-002	1.030868e+001	1.201425e+001
2.974603293223281e-002	1.006550e+001	1.176615e+001
3.003900168223282e-002	9.684706e+000	1.137753e+001
3.033197043223282e-002	9.171070e+000	1.085312e+001
3.052728293223282e-002	8.757981e+000	1.043115e+001
3.072259543223282e-002	8.291029e+000	9.953925e+000
3.082025168223283e-002	8.038171e+000	9.695383e+000
3.091790793223283e-002	7.772863e+000	9.424017e+000
3.101556418223283e-002	7.495489e+000	9.140193e+000
3.111322043223283e-002	7.206446e+000	8.844296e+000
3.121087668223283e-002	6.906153e+000	8.536728e+000
3.130853293223283e-002	6.595048e+000	8.217905e+000
3.140618918223283e-002	6.273590e+000	7.888257e+000
3.150384543223284e-002	5.942257e+000	7.548232e+000
3.160150168223284e-002	5.601550e+000	7.198290e+000
3.169915793223284e-002	5.251993e+000	6.838905e+000
3.179681418223284e-002	4.894133e+000	6.470564e+000
3.189447043223284e-002	4.528550e+000	6.093765e+000
3.199212668223284e-002	4.155856e+000	5.709019e+000
3.208978293223284e-002	3.776707e+000	5.316847e+000
3.218743918223285e-002	3.391816e+000	4.917780e+000
3.228509543223285e-002	3.001976e+000	4.512359e+000
3.238275168223285e-002	2.608101e+000	4.101131e+000
3.248040793223285e-002	2.211295e+000	3.684655e+000
3.257806418223285e-002	1.813002e+000	3.263494e+000
3.267572043223285e-002	1.415331e+000	2.838216e+000
3.277337668223285e-002	1.022130e+000	2.409398e+000
3.287103293223286e-002	6.422226e-001	1.977615e+000
3.296868918223286e-002	2.909139e-001	1.543630e+000
3.302348685975672e-002	1.247615e-001	1.299285e+000
3.305388121041099e-002	5.812711e-002	1.163471e+000
3.307750151428542e-002	2.718002e-002	1.057803e+000
3.310475129964415e-002	8.267432e-003	9.358139e-001
3.311495496082512e-002	4.694939e-003	8.901137e-001
3.312692311488814e-002	2.724409e-003	8.364912e-001
3.314062256002578e-002	1.435608e-003	7.750967e-001
3.315495371469128e-002	7.261336e-004	7.108554e-001
3.317114717960771e-002	3.405809e-004	6.382486e-001
3.319010379633003e-002	1.426041e-004	5.532332e-001
3.321327503801352e-002	5.045533e-005	4.492946e-001
3.324238293954650e-002	1.406670e-005	3.187051e-001
3.328051296313904e-002	2.682209e-006	1.476315e-001
3.333092069955776e-002	5.438924e-006	-7.846895e-002
3.340706998859179e-002	8.748472e-005	-4.198311e-001
3.345195380478148e-002	4.499257e-004	-6.208515e-001
3.348335000910597e-002	1.476049e-003	-7.613224e-001
3.350282678715155e-002	3.351808e-003	-8.483915e-001
3.351949744903179e-002	7.059932e-003	-9.228631e-001
3.353564201529728e-002	1.427698e-002	-9.949369e-001
3.355307498833252e-002	2.827847e-002	-1.072708e+000
3.357082740826909e-002	5.177331e-002	-1.151838e+000
3.359428894831209e-002	9.884274e-002	-1.256293e+000
3.363298517868132e-002	2.023111e-001	-1.428308e+000
3.367336581671327e-002	3.314264e-001	-1.607440e+000
3.371947376845695e-002	4.961313e-001	-1.811370e+000
3.378861277556786e-002	7.590978e-001	-2.115816e+000
3.388626902556786e-002	1.143622e+000	-2.543178e+000
3.398392527556787e-002	1.534881e+000	-2.967007e+000
3.408158152556787e-002	1.928699e+000	-3.386508e+000
3.417923777556787e-002	2.321901e+000	-3.801114e+000
3.427689402556787e-002	2.712416e+000	-4.210265e+000
3.437455027556787e-002	3.098992e+000	-4.613407e+000
3.447220652556787e-002	3.480645e+000	-5.009994e+000
3.456986277556787e-002	3.856523e+000	-5.399488e+000
3.466751902556788e-002	4.225874e+000	-5.781363e+000
3.476517527556788e-002	4.588016e+000	-6.155101e+000
3.486283152556788e-002	4.942321e+000	-6.520196e+000
3.496048777556788e-002	5.288202e+000	-6.876155e+000
3.505814402556788e-002	5.625100e+000	-7.222494e+000
3.515580027556788e-002	5.952492e+000	-7.558744e+000
3.525345652556788e-002	6.269876e+000	-7.884451e+000
3.535111277556789e-002	6.576771e+000	-8.199173e+000
3.544876902556789e-002	6.872724e+000	-8.502483e+000
3.554642527556789e-002	7.157297e+000	-8.793972e+000
3.564408152556789e-002	7.430076e+000	-9.073244e+000
3.574173777556789e-002	7.690665e+000	-9.339922e+000
3.583939402556789e-002	7.938689e+000	-9.593645e+000
3.603470652556789e-002	8.395640e+000	-1.006087e+001
3.632767527556790e-002	8.978594e+000	-1.065653e+001
3.662064402556790e-002	9.432115e+000	-1.111967e+001
3.691361277556791e-002	9.750469e+000	-1.144466e+001
3.720658152556791e-002	9.929649e+000	-1.162752e+001
3.749955027556792e-002	9.967409e+000	-1.166606e+001
3.779251902556792e-002	9.863282e+000	-1.155980e+001
3.808548777556792e-002	9.618584e+000	-1.131004e+001
3.837845652556793e-002	9.236404e+000	-1.091984e+001
3.867142527556793e-002	8.721577e+000	-1.039396e+001
3.896439402556794e-002	8.080641e+000	-9.738819e+000
3.925736277556794e-002	7.321796e+000	-8.962403e+000
3.955033152556794e-002	6.454866e+000	-8.074184e+000
3.984330027556795e-002	5.491304e+000	-7.084991e+000
4.013626902556795e-002	4.444329e+000	-6.006887e+000
4.042923777556796e-002	3.329441e+000	-4.853014e+000
4.072220652556796e-002	2.166456e+000	-3.637440e+000
4.091751902556796e-002	1.379928e+000	-2.800067e+000
4.101517527556797e-002	9.910060e-001	-2.374973e+000
4.111283152556797e-002	6.157126e-001	-1.946369e+000
4.121048777556797e-002	2.690340e-001	-1.515109e+000
4.125953302301523e-002	1.235250e-001	-1.297594e+000
4.129141889088581e-002	5.562413e-002	-1.155792e+000
4.131513438394791e-002	2.502692e-002	-1.050162e+000
4.133835460825674e-002	8.950323e-003	-9.466373e-001
4.134863305650713e-002	5.245745e-003	-9.007800e-001
4.136059675117857e-002	3.059298e-003	-8.473746e-001
4.137444799939420e-002	1.605541e-003	-7.855170e-001
4.138852552832116e-002	8.210540e-004	-7.226209e-001
4.140435564621448e-002	3.922284e-004	-6.518621e-001
4.142285116318475e-002	1.676977e-004	-5.691499e-001
4.144518307224861e-002	6.331503e-005	-4.692282e-001
4.147795504264158e-002	1.780689e-005	-3.225031e-001
4.153184384904970e-002	4.969537e-006	-8.108176e-002
4.162950009904970e-002	8.484721e-005	3.565724e-001
4.168987509272579e-002	5.508661e-004	6.271147e-001
4.172326188500626e-002	1.762480e-003	7.766559e-001
4.174283887716850e-002	3.949225e-003	8.642979e-001
4.175918490003981e-002	8.154243e-003	9.374434e-001
4.177533570176584e-002	1.632890e-002	1.009685e+000
4.179261473700961e-002	3.174579e-002	1.086935e+000
4.181097490796600e-002	5.829263e-002	1.168969e+000
4.183630633194720e-002	1.122194e-001	1.282054e+000
4.187398314551199e-002	2.166221e-001	1.450056e+000
4.191381728460154e-002	3.468786e-001	1.627394e+000
4.196213185269663e-002	5.219227e-001	1.841973e+000
4.203476482833987e-002	8.011872e-001	2.163377e+000
4.213242107833987e-002	1.189447e+000	2.593237e+000
4.232773357833988e-002	1.982098e+000	3.442987e+000
4.262070232833988e-002	3.166182e+000	4.683308e+000
4.291367107833988e-002	4.310811e+000	5.869068e+000
4.320663982833989e-002	5.394843e+000	6.985816e+000
4.349960857833989e-002	6.401971e+000	8.019936e+000
4.379257732833990e-002	7.318302e+000	8.958820e+000
4.408554607833990e-002	8.131696e+000	9.791020e+000
4.437851482833990e-002	8.831621e+000	1.050639e+001
4.467148357833991e-002	9.409124e+000	1.109620e+001
4.496445232833991e-002	9.856880e+000	1.155326e+001
4.525742107833992e-002	1.016923e+001	1.187199e+001
4.555038982833992e-002	1.034225e+001	1.204850e+001
4.584335857833993e-002	1.037375e+001	1.208064e+001
4.613632732833993e-002	1.026333e+001	1.196799e+001
4.642929607833993e-002	1.001238e+001	1.171194e+001
4.672226482833994e-002	9.624024e+000	1.131559e+001
4.691757732833994e-002	9.291135e+000	1.097573e+001
4.711288982833994e-002	8.901184e+000	1.057746e+001
4.721054607833995e-002	8.685486e+000	1.035708e+001
4.730820232833995e-002	8.456371e+000	1.012294e+001
4.740585857833995e-002	8.214163e+000	9.875341e+000
4.750351482833995e-002	7.959208e+000	9.614629e+000
4.760117107833995e-002	7.691871e+000	9.341154e+000
4.769882732833995e-002	7.412533e+000	9.055286e+000
